User : 6 1 options.c:52 configuration_output_handler(): set log_output to "openocd_trace.log"User : 7 1 options.c:52 configuration_output_handler(): 
Debug: 8 1 options.c:348 parse_cmdline_args(): ARGV[0] = "riscv-openocd"
Debug: 9 1 options.c:348 parse_cmdline_args(): ARGV[1] = "-f"
Debug: 10 1 options.c:348 parse_cmdline_args(): ARGV[2] = "openocd/picodriver.cfg"
Debug: 11 1 options.c:348 parse_cmdline_args(): ARGV[3] = "-d3"
Debug: 12 1 options.c:348 parse_cmdline_args(): ARGV[4] = "-l"
Debug: 13 1 options.c:348 parse_cmdline_args(): ARGV[5] = "openocd_trace.log"
Debug: 14 1 options.c:233 add_default_dirs(): bindir=/usr/local/bin
Debug: 15 1 options.c:234 add_default_dirs(): pkgdatadir=/usr/local/share/openocd
Debug: 16 1 options.c:235 add_default_dirs(): exepath=/usr/local/bin
Debug: 17 1 options.c:236 add_default_dirs(): bin2data=../share/openocd
Debug: 18 1 configuration.c:33 add_script_search_dir(): adding /root/.config/openocd
Debug: 19 1 configuration.c:33 add_script_search_dir(): adding /root/.openocd
Debug: 20 1 configuration.c:33 add_script_search_dir(): adding /usr/local/bin/../share/openocd/site
Debug: 21 1 configuration.c:33 add_script_search_dir(): adding /usr/local/bin/../share/openocd/scripts
Debug: 22 1 command.c:86 script_debug(): command - ocd_find openocd/picodriver.cfg
Debug: 23 1 configuration.c:88 find_file(): found openocd/picodriver.cfg
Debug: 24 1 command.c:86 script_debug(): command - adapter driver cmsis-dap
Debug: 25 1 command.c:86 script_debug(): command - transport select jtag
Debug: 26 1 command.c:86 script_debug(): command - adapter speed 500
Debug: 27 1 adapter.c:252 adapter_config_khz(): handle adapter khz
Debug: 28 1 adapter.c:215 adapter_khz_to_speed(): convert khz to adapter specific speed value
Debug: 29 1 adapter.c:215 adapter_khz_to_speed(): convert khz to adapter specific speed value
Debug: 30 1 command.c:86 script_debug(): command - jtag newtap hazard3 cpu -irlen 5
Debug: 31 1 tcl.c:404 handle_jtag_newtap_args(): Creating New Tap, Chip: hazard3, Tap: cpu, Dotted: hazard3.cpu, 2 params
Debug: 32 1 core.c:1488 jtag_tap_init(): Created Tap: hazard3.cpu @ abs position 0, irlen 5, capture: 0x1 mask: 0x3
Debug: 33 1 command.c:86 script_debug(): command - target create hazard3.cpu riscv -chain-position hazard3.cpu
Debug: 34 1 riscv.c:494 riscv_create_target(): [hazard3.cpu] riscv_create_target()
Debug: 35 1 command.c:86 script_debug(): command - hazard3.cpu configure -work-area-phys 0x00000000 -work-area-size 131072 -work-area-backup 0
Debug: 36 1 target.c:2145 target_free_all_working_areas_restore(): freeing all working areas
Debug: 37 1 target.c:2145 target_free_all_working_areas_restore(): freeing all working areas
Debug: 38 1 target.c:2145 target_free_all_working_areas_restore(): freeing all working areas
Debug: 39 1 command.c:86 script_debug(): command - riscv set_command_timeout_sec 60
Debug: 40 1 command.c:86 script_debug(): command - gdb report_data_abort enable
Debug: 41 1 command.c:86 script_debug(): command - gdb memory_map enable
Debug: 42 1 command.c:86 script_debug(): command - gdb flash_program enable
Debug: 43 1 command.c:86 script_debug(): command - init
Debug: 44 1 command.c:86 script_debug(): command - target init
Debug: 45 1 command.c:86 script_debug(): command - target names
Debug: 46 1 command.c:86 script_debug(): command - hazard3.cpu cget -event gdb-flash-erase-start
Debug: 47 1 command.c:86 script_debug(): command - hazard3.cpu configure -event gdb-flash-erase-start reset init
Debug: 48 1 command.c:86 script_debug(): command - hazard3.cpu cget -event gdb-flash-write-end
Debug: 49 1 command.c:86 script_debug(): command - hazard3.cpu configure -event gdb-flash-write-end reset halt
Debug: 50 1 command.c:86 script_debug(): command - hazard3.cpu cget -event gdb-attach
Debug: 51 1 command.c:86 script_debug(): command - hazard3.cpu configure -event gdb-attach halt 1000
Debug: 52 1 target.c:1603 handle_target_init_command(): Initializing targets...
Debug: 53 1 riscv.c:666 riscv_init_target(): [hazard3.cpu] riscv_init_target()
Debug: 54 1 semihosting_common.c:109 semihosting_common_init():  
Debug: 55 24 cmsis_dap_usb_bulk.c:189 cmsis_dap_usb_open(): enumerating interfaces of 0x1d6b:0x0003
Debug: 56 27 cmsis_dap_usb_bulk.c:189 cmsis_dap_usb_open(): enumerating interfaces of 0x413c:0x2107
Debug: 57 27 cmsis_dap_usb_bulk.c:189 cmsis_dap_usb_open(): enumerating interfaces of 0x1a86:0x7523
Debug: 58 28 cmsis_dap_usb_bulk.c:189 cmsis_dap_usb_open(): enumerating interfaces of 0x09fb:0x6010
Debug: 59 29 cmsis_dap_usb_bulk.c:189 cmsis_dap_usb_open(): enumerating interfaces of 0x187c:0x0550
Debug: 60 122 cmsis_dap_usb_bulk.c:189 cmsis_dap_usb_open(): enumerating interfaces of 0x8087:0x0032
Debug: 61 124 cmsis_dap_usb_bulk.c:189 cmsis_dap_usb_open(): enumerating interfaces of 0x413c:0x301a
Debug: 62 125 cmsis_dap_usb_bulk.c:169 cmsis_dap_usb_open(): found product string of 0x2e8a:0x000c 'JTAG probe on Pico (CMSIS-DAP)'
Debug: 63 125 cmsis_dap_usb_bulk.c:189 cmsis_dap_usb_open(): enumerating interfaces of 0x2e8a:0x000c
Debug: 64 126 cmsis_dap_usb_bulk.c:236 cmsis_dap_usb_open(): found interface 0 string 'CMSIS-DAP v2 Interface'
Info : 65 126 cmsis_dap_usb_bulk.c:339 cmsis_dap_usb_open(): Using CMSIS-DAPv2 interface with VID:PID=0x2e8a:0x000c, serial=E66141040374B02B
Debug: 66 136 cmsis_dap_usb_bulk.c:511 cmsis_dap_usb_read(): USB timeout @ 0
Info : 67 139 cmsis_dap.c:1179 cmsis_dap_get_caps_info(): CMSIS-DAP: SWD supported
Info : 68 139 cmsis_dap.c:1179 cmsis_dap_get_caps_info(): CMSIS-DAP: JTAG supported
Info : 69 139 cmsis_dap.c:1179 cmsis_dap_get_caps_info(): CMSIS-DAP: Atomic commands supported
Info : 70 139 cmsis_dap.c:1179 cmsis_dap_get_caps_info(): CMSIS-DAP: Test domain timer supported
Info : 71 145 cmsis_dap.c:1156 cmsis_dap_get_version_info(): CMSIS-DAP: FW Version = 2.0.0
Info : 72 157 cmsis_dap.c:1354 cmsis_dap_init(): CMSIS-DAP: Interface Initialised (JTAG)
Debug: 73 169 cmsis_dap.c:1398 cmsis_dap_init(): CMSIS-DAP: Packet Count = 2
Debug: 74 169 cmsis_dap.c:1401 cmsis_dap_init(): Allocating FIFO for 2 pending packets
Info : 75 176 cmsis_dap.c:1212 cmsis_dap_get_status(): SWCLK/TCK = 0 SWDIO/TMS = 0 TDI = 0 TDO = 0 nTRST = 0 nRESET = 0
Info : 76 205 cmsis_dap.c:1453 cmsis_dap_init(): CMSIS-DAP: Interface ready
Debug: 77 205 adapter.c:215 adapter_khz_to_speed(): convert khz to adapter specific speed value
Debug: 78 205 adapter.c:219 adapter_khz_to_speed(): have adapter set up
Debug: 79 212 adapter.c:215 adapter_khz_to_speed(): convert khz to adapter specific speed value
Debug: 80 212 adapter.c:219 adapter_khz_to_speed(): have adapter set up
Info : 81 212 adapter.c:180 adapter_init(): clock speed 500 kHz
Debug: 82 212 openocd.c:133 handle_init_command(): Debug Adapter init complete
Debug: 83 212 command.c:86 script_debug(): command - transport init
Debug: 84 212 transport.c:274 handle_transport_init(): handle_transport_init
Debug: 85 218 core.c:843 jtag_add_reset(): SRST line released
Debug: 86 218 core.c:868 jtag_add_reset(): TRST line released
Debug: 87 218 core.c:334 jtag_call_event_callbacks(): jtag event: TAP reset
Debug: 88 218 command.c:86 script_debug(): command - jtag arp_init
Debug: 89 218 core.c:1522 jtag_init_inner(): Init JTAG chain
Debug: 90 218 core.c:334 jtag_call_event_callbacks(): jtag event: TAP reset
Info : 91 218 cmsis_dap.c:1510 cmsis_dap_execute_tlr_reset(): cmsis-dap JTAG TLR_RESET
Debug: 92 225 core.c:1248 jtag_examine_chain(): DR scan interrogation for IDCODE/BYPASS
Debug: 93 225 core.c:334 jtag_call_event_callbacks(): jtag event: TAP reset
Info : 94 240 cmsis_dap.c:1510 cmsis_dap_execute_tlr_reset(): cmsis-dap JTAG TLR_RESET
Info : 95 248 core.c:1146 jtag_examine_chain_display(): JTAG tap: hazard3.cpu tap/device found: 0xdeadbeef (mfg: 0x777 (Fabric of Truth Inc), part: 0xeadb, ver: 0xd)
Debug: 96 248 core.c:1378 jtag_validate_ircapture(): IR capture validation scan
Debug: 97 255 core.c:1435 jtag_validate_ircapture(): hazard3.cpu: IR capture 0x01
Debug: 98 255 command.c:86 script_debug(): command - dap init
Debug: 99 255 arm_dap.c:96 dap_init_all(): Initializing all DAPs ...
Debug: 100 255 openocd.c:150 handle_init_command(): Examining targets...
Debug: 101 255 target.c:684 target_examine_one(): [hazard3.cpu] Examination started
Debug: 102 255 target.c:1789 target_call_event_callbacks(): target event 19 (examine-start) for core hazard3.cpu
Debug: 103 255 riscv.c:2474 riscv_examine(): [hazard3.cpu] Starting examination
Debug: 104 270 riscv.c:447 dtmcs_scan(): TAP hazard3.cpu: DTMCS: 0x0 -> 0x4071
Debug: 105 270 riscv.c:2488 riscv_examine(): [hazard3.cpu] dtmcontrol=0x4071
Debug: 106 270 riscv.c:2490 riscv_examine(): [hazard3.cpu] version=0x1
Debug: 107 270 riscv-013.c:2856 init_target(): [hazard3.cpu] Init.
Debug: 108 270 riscv-013.c:2001 examine(): [hazard3.cpu] dbgbase=0x0
Debug: 109 285 riscv.c:447 dtmcs_scan(): TAP hazard3.cpu: DTMCS: 0x0 -> 0x4071
Debug: 110 285 riscv-013.c:2009 examine(): [hazard3.cpu] dtmcontrol=0x4071
Debug: 111 285 riscv-013.c:2010 examine(): [hazard3.cpu] dtmcs=0x4071 {version=1_0 idle=4 errinfo=not_implemented abits=7}
Debug: 112 285 riscv-013.c:543 check_dbgbase_exists(): [hazard3.cpu] Searching for DM with DMI base address (dbgbase) = 0x0
Debug: 113 285 riscv-013.c:296 get_dm(): [hazard3.cpu] Coreid [0] Allocating new DM
Debug: 114 285 batch.c:291 riscv_batch_run_from(): [hazard3.cpu] Running batch of scans [0, 2)
Debug: 115 293 batch.c:255 log_batch(): 41b r 00000000 @10 -> + 00000000 @00; 0i
Debug: 116 293 batch.c:255 log_batch(): 41b - 00000000 @00 -> b 00000000 @00; 0i
Debug: 117 308 riscv.c:451 dtmcs_scan(): TAP hazard3.cpu: DTMCS: 0x10000 -> ?
Debug: 118 308 batch.h:86 riscv_scan_set_delay(): DM access delay is set to 1.
Debug: 119 308 batch.c:139 add_idle_before_batch(): [hazard3.cpu] Adding 1 idle cycles before the batch.
Debug: 120 308 batch.c:291 riscv_batch_run_from(): [hazard3.cpu] Running batch of scans [1, 2)
Debug: 121 315 batch.c:255 log_batch(): 41b - 00000000 @00 -> + 00000001 @00; 1i
Debug: 122 315 batch.c:199 log_dmi_decoded(): read: dmcontrol=1 {dmactive=active}
Debug: 123 315 riscv-013.c:1856 reset_dm(): [hazard3.cpu] Initiating DM reset.
Debug: 124 315 batch.c:291 riscv_batch_run_from(): [hazard3.cpu] Running batch of scans [0, 2)
Debug: 125 323 batch.c:255 log_batch(): 41b w 00000000 @10 -> + 00000001 @00; 1i
Debug: 126 323 batch.c:199 log_dmi_decoded(): write: dmcontrol=0 {}
Debug: 127 323 batch.c:255 log_batch(): 41b - 00000000 @00 -> b 00000001 @00; 1i
Debug: 128 337 riscv.c:451 dtmcs_scan(): TAP hazard3.cpu: DTMCS: 0x10000 -> ?
Debug: 129 338 batch.h:86 riscv_scan_set_delay(): DM access delay is set to 2.
Debug: 130 338 batch.c:139 add_idle_before_batch(): [hazard3.cpu] Adding 1 idle cycles before the batch.
Debug: 131 338 batch.c:291 riscv_batch_run_from(): [hazard3.cpu] Running batch of scans [1, 2)
Debug: 132 345 batch.c:255 log_batch(): 41b - 00000000 @00 -> + 00000001 @00; 2i
Debug: 133 345 riscv-013.c:1862 reset_dm(): [hazard3.cpu] Waiting for the DM to acknowledge reset.
Debug: 134 345 batch.c:291 riscv_batch_run_from(): [hazard3.cpu] Running batch of scans [0, 2)
Debug: 135 352 batch.c:255 log_batch(): 41b r 00000000 @10 -> + 00000001 @00; 2i
Debug: 136 352 batch.c:255 log_batch(): 41b - 00000000 @00 -> b 00000001 @00; 2i
Debug: 137 367 riscv.c:451 dtmcs_scan(): TAP hazard3.cpu: DTMCS: 0x10000 -> ?
Debug: 138 367 batch.h:86 riscv_scan_set_delay(): DM access delay is set to 3.
Debug: 139 367 batch.c:139 add_idle_before_batch(): [hazard3.cpu] Adding 1 idle cycles before the batch.
Debug: 140 367 batch.c:291 riscv_batch_run_from(): [hazard3.cpu] Running batch of scans [1, 2)
Debug: 141 374 batch.c:255 log_batch(): 41b - 00000000 @00 -> + 00000000 @00; 3i
Debug: 142 374 batch.c:199 log_dmi_decoded(): read: dmcontrol=0 {}
Debug: 143 374 riscv-013.c:1875 reset_dm(): [hazard3.cpu] DM reset initiated.
Debug: 144 374 riscv-013.c:1878 reset_dm(): [hazard3.cpu] Activating the DM.
Debug: 145 374 batch.c:291 riscv_batch_run_from(): [hazard3.cpu] Running batch of scans [0, 2)
Debug: 146 382 batch.c:255 log_batch(): 41b w 00000001 @10 -> + 00000000 @00; 3i
Debug: 147 382 batch.c:199 log_dmi_decoded(): write: dmcontrol=1 {dmactive=active}
Debug: 148 382 batch.c:255 log_batch(): 41b - 00000000 @00 -> b 00000000 @00; 3i
Debug: 149 397 riscv.c:451 dtmcs_scan(): TAP hazard3.cpu: DTMCS: 0x10000 -> ?
Debug: 150 397 batch.h:86 riscv_scan_set_delay(): DM access delay is set to 4.
Debug: 151 397 batch.c:139 add_idle_before_batch(): [hazard3.cpu] Adding 1 idle cycles before the batch.
Debug: 152 397 batch.c:291 riscv_batch_run_from(): [hazard3.cpu] Running batch of scans [1, 2)
Debug: 153 404 batch.c:255 log_batch(): 41b - 00000000 @00 -> + 00000000 @00; 4i
Debug: 154 404 riscv-013.c:1884 reset_dm(): [hazard3.cpu] Waiting for the DM to come out of reset.
Debug: 155 404 batch.c:291 riscv_batch_run_from(): [hazard3.cpu] Running batch of scans [0, 2)
Debug: 156 412 batch.c:255 log_batch(): 41b r 00000000 @10 -> + 00000000 @00; 4i
Debug: 157 412 batch.c:255 log_batch(): 41b - 00000000 @00 -> b 00000001 @00; 4i
Debug: 158 427 riscv.c:451 dtmcs_scan(): TAP hazard3.cpu: DTMCS: 0x10000 -> ?
Debug: 159 427 batch.h:86 riscv_scan_set_delay(): DM access delay is set to 5.
Debug: 160 427 batch.c:139 add_idle_before_batch(): [hazard3.cpu] Adding 1 idle cycles before the batch.
Debug: 161 427 batch.c:291 riscv_batch_run_from(): [hazard3.cpu] Running batch of scans [1, 2)
Debug: 162 434 batch.c:255 log_batch(): 41b - 00000000 @00 -> + 00000001 @00; 5i
Debug: 163 435 batch.c:199 log_dmi_decoded(): read: dmcontrol=1 {dmactive=active}
Debug: 164 435 riscv-013.c:1898 reset_dm(): [hazard3.cpu] DM successfully reset.
Debug: 165 435 batch.c:291 riscv_batch_run_from(): [hazard3.cpu] Running batch of scans [0, 2)
Debug: 166 449 batch.c:255 log_batch(): 41b w 07ffffc1 @10 -> + 00000001 @00; 5i
Debug: 167 449 batch.c:199 log_dmi_decoded(): write: dmcontrol=0x7ffffc1 {dmactive=active hartsello=0x3ff hasel=multiple hartselhi=0x3ff}
Debug: 168 449 batch.c:255 log_batch(): 41b - 00000000 @00 -> + 00000001 @00; 5i
Debug: 169 449 batch.c:291 riscv_batch_run_from(): [hazard3.cpu] Running batch of scans [0, 2)
Debug: 170 464 batch.c:255 log_batch(): 41b r 00000000 @10 -> + 00000001 @00; 5i
Debug: 171 464 batch.c:255 log_batch(): 41b - 00000000 @00 -> + 00000001 @00; 5i
Debug: 172 464 batch.c:199 log_dmi_decoded(): read: dmcontrol=1 {dmactive=active}
Debug: 173 464 batch.c:291 riscv_batch_run_from(): [hazard3.cpu] Running batch of scans [0, 2)
Debug: 174 479 batch.c:255 log_batch(): 41b w 00000001 @10 -> + 00000001 @00; 5i
Debug: 175 479 batch.c:199 log_dmi_decoded(): write: dmcontrol=1 {dmactive=active}
Debug: 176 479 batch.c:255 log_batch(): 41b - 00000000 @00 -> + 00000001 @00; 5i
Debug: 177 479 batch.c:291 riscv_batch_run_from(): [hazard3.cpu] Running batch of scans [0, 2)
Debug: 178 494 batch.c:255 log_batch(): 41b r 00000000 @11 -> + 00000001 @00; 5i
Debug: 179 494 batch.c:255 log_batch(): 41b - 00000000 @00 -> + 004003a2 @00; 5i
Debug: 180 494 batch.c:199 log_dmi_decoded(): read: dmstatus=0x4003a2 {version=0_13 impebreak=1 hasresethaltreq=1 authenticated=true anyhalted=1 allhalted=1}
Debug: 181 494 riscv-013.c:1981 examine_dm(): [hazard3.cpu] Detected 1 harts.
Debug: 182 494 riscv-013.c:5418 riscv013_invalidate_cached_progbuf(): [hazard3.cpu] Invalidating progbuf cache
Debug: 183 494 batch.c:291 riscv_batch_run_from(): [hazard3.cpu] Running batch of scans [0, 2)
Debug: 184 509 batch.c:255 log_batch(): 41b r 00000000 @11 -> + 004003a2 @00; 5i
Debug: 185 509 batch.c:255 log_batch(): 41b - 00000000 @00 -> + 004003a2 @00; 5i
Debug: 186 509 batch.c:199 log_dmi_decoded(): read: dmstatus=0x4003a2 {version=0_13 impebreak=1 hasresethaltreq=1 authenticated=true anyhalted=1 allhalted=1}
Debug: 187 509 riscv-013.c:2072 examine(): [hazard3.cpu] dmstatus:  0x004003a2
Debug: 188 509 batch.c:291 riscv_batch_run_from(): [hazard3.cpu] Running batch of scans [0, 2)
Debug: 189 524 batch.c:255 log_batch(): 41b r 00000000 @12 -> + 004003a2 @00; 5i
Debug: 190 524 batch.c:255 log_batch(): 41b - 00000000 @00 -> + 00001bff @00; 5i
Debug: 191 524 batch.c:199 log_dmi_decoded(): read: 
Debug: 192 524 batch.c:291 riscv_batch_run_from(): [hazard3.cpu] Running batch of scans [0, 2)
Debug: 193 539 batch.c:255 log_batch(): 41b r 00000000 @38 -> + 00001bff @00; 5i
Debug: 194 539 batch.c:255 log_batch(): 41b - 00000000 @00 -> + 20000407 @00; 5i
Debug: 195 539 batch.c:199 log_dmi_decoded(): read: sbcs=0x20000407 {sbaccess8=1 sbaccess16=1 sbaccess32=1 sbversion=1_0 sbasize=0x20}
Debug: 196 539 batch.c:291 riscv_batch_run_from(): [hazard3.cpu] Running batch of scans [0, 2)
Debug: 197 554 batch.c:255 log_batch(): 41b r 00000000 @16 -> + 20000407 @00; 5i
Debug: 198 554 batch.c:255 log_batch(): 41b - 00000000 @00 -> + 02000001 @00; 5i
Debug: 199 554 batch.c:199 log_dmi_decoded(): read: abstractcs=0x2000001 {datacount=1 progbufsize=2}
Info : 200 554 riscv-013.c:2104 examine(): [hazard3.cpu] datacount=1 progbufsize=2
Debug: 201 554 batch.c:291 riscv_batch_run_from(): [hazard3.cpu] Running batch of scans [0, 2)
Debug: 202 569 batch.c:255 log_batch(): 41b r 00000000 @11 -> + 02000001 @00; 5i
Debug: 203 569 batch.c:255 log_batch(): 41b - 00000000 @00 -> + 004003a2 @00; 5i
Debug: 204 569 batch.c:199 log_dmi_decoded(): read: dmstatus=0x4003a2 {version=0_13 impebreak=1 hasresethaltreq=1 authenticated=true anyhalted=1 allhalted=1}
Debug: 205 569 riscv_reg.c:697 riscv_reg_impl_init_cache(): [hazard3.cpu] create register cache for 4194 registers
Debug: 206 569 riscv-013.c:748 riscv013_execute_abstract_command(): [hazard3.cpu] access register=0x321008 {regno=0x1008 write=arg0 transfer=enabled postexec=disabled aarpostincrement=disabled aarsize=64bit}
Debug: 207 569 batch.c:291 riscv_batch_run_from(): [hazard3.cpu] Running batch of scans [0, 3)
Debug: 208 584 batch.c:255 log_batch(): 41b w 00321008 @17 -> + 004003a2 @00; 5i
Debug: 209 584 batch.c:199 log_dmi_decoded(): write: command=0x321008 {control=0x321008}
Debug: 210 584 batch.c:255 log_batch(): 41b r 00000000 @16 -> + 00000000 @00; 5i
Debug: 211 584 batch.c:255 log_batch(): 41b - 00000000 @00 -> + 02000201 @00; 5i
Debug: 212 584 batch.c:199 log_dmi_decoded(): read: abstractcs=0x2000201 {datacount=1 progbufsize=2 cmderr=not_supported}
Debug: 213 584 riscv-013.c:683 abstract_cmd_batch_check_and_clear_cmderr(): [hazard3.cpu] abstractcs=0x2000201 {datacount=1 relaxedpriv=full_checks busy=ready progbufsize=2 cmderr=not_supported}
Debug: 214 584 riscv-013.c:705 abstract_cmd_batch_check_and_clear_cmderr(): [hazard3.cpu] Abstract Command execution failed (abstractcs.cmderr = 2).
Debug: 215 584 batch.c:291 riscv_batch_run_from(): [hazard3.cpu] Running batch of scans [0, 2)
Debug: 216 599 batch.c:255 log_batch(): 41b w 00000700 @16 -> + 02000201 @00; 5i
Debug: 217 599 batch.c:199 log_dmi_decoded(): write: abstractcs=0x700 {cmderr=other}
Debug: 218 599 batch.c:255 log_batch(): 41b - 00000000 @00 -> + 02000201 @00; 5i
Debug: 219 599 riscv-013.c:733 mark_command_as_unsupported(): [hazard3.cpu] Caching the abstract command 0x321008 as not supported
Debug: 220 599 riscv-013.c:736 mark_command_as_unsupported(): [hazard3.cpu] access register=0x321008 {regno=0x1008 write=arg0 transfer=enabled postexec=disabled aarpostincrement=disabled aarsize=64bit}
Debug: 221 599 riscv_reg.c:979 riscv_reg_get(): [hazard3.cpu] Reading misa from target
Debug: 222 599 riscv-013.c:5118 riscv013_get_register(): [hazard3.cpu] reading register misa
Debug: 223 599 riscv-013.c:1635 register_read_direct(): [hazard3.cpu] Reading misa
Debug: 224 599 riscv-013.c:748 riscv013_execute_abstract_command(): [hazard3.cpu] access register=0x220301 {regno=0x301 write=arg0 transfer=enabled postexec=disabled aarpostincrement=disabled aarsize=32bit}
Debug: 225 599 batch.c:291 riscv_batch_run_from(): [hazard3.cpu] Running batch of scans [0, 3)
Debug: 226 613 batch.c:255 log_batch(): 41b w 00220301 @17 -> + 02000201 @00; 5i
Debug: 227 613 batch.c:199 log_dmi_decoded(): write: command=0x220301 {control=0x220301}
Debug: 228 613 batch.c:255 log_batch(): 41b r 00000000 @16 -> + 00000000 @00; 5i
Debug: 229 613 batch.c:255 log_batch(): 41b - 00000000 @00 -> + 02000201 @00; 5i
Debug: 230 613 batch.c:199 log_dmi_decoded(): read: abstractcs=0x2000201 {datacount=1 progbufsize=2 cmderr=not_supported}
Debug: 231 614 riscv-013.c:683 abstract_cmd_batch_check_and_clear_cmderr(): [hazard3.cpu] abstractcs=0x2000201 {datacount=1 relaxedpriv=full_checks busy=ready progbufsize=2 cmderr=not_supported}
Debug: 232 614 riscv-013.c:705 abstract_cmd_batch_check_and_clear_cmderr(): [hazard3.cpu] Abstract Command execution failed (abstractcs.cmderr = 2).
Debug: 233 614 batch.c:291 riscv_batch_run_from(): [hazard3.cpu] Running batch of scans [0, 2)
Debug: 234 629 batch.c:255 log_batch(): 41b w 00000700 @16 -> + 02000201 @00; 5i
Debug: 235 629 batch.c:199 log_dmi_decoded(): write: abstractcs=0x700 {cmderr=other}
Debug: 236 629 batch.c:255 log_batch(): 41b - 00000000 @00 -> + 02000201 @00; 5i
Debug: 237 629 riscv-013.c:733 mark_command_as_unsupported(): [hazard3.cpu] Caching the abstract command 0x220301 as not supported
Debug: 238 629 riscv-013.c:736 mark_command_as_unsupported(): [hazard3.cpu] access register=0x220301 {regno=0x301 write=arg0 transfer=enabled postexec=disabled aarpostincrement=disabled aarsize=32bit}
Debug: 239 629 riscv-013_reg.c:375 riscv013_reg_save(): [hazard3.cpu] Saving fp
Debug: 240 629 riscv_reg.c:979 riscv_reg_get(): [hazard3.cpu] Reading fp from target
Debug: 241 629 riscv-013.c:5118 riscv013_get_register(): [hazard3.cpu] reading register fp
Debug: 242 629 riscv-013.c:1635 register_read_direct(): [hazard3.cpu] Reading fp
Debug: 243 629 riscv-013.c:748 riscv013_execute_abstract_command(): [hazard3.cpu] access register=0x221008 {regno=0x1008 write=arg0 transfer=enabled postexec=disabled aarpostincrement=disabled aarsize=32bit}
Debug: 244 629 batch.c:291 riscv_batch_run_from(): [hazard3.cpu] Running batch of scans [0, 3)
Debug: 245 644 batch.c:255 log_batch(): 41b w 00221008 @17 -> + 02000201 @00; 5i
Debug: 246 644 batch.c:199 log_dmi_decoded(): write: command=0x221008 {control=0x221008}
Debug: 247 644 batch.c:255 log_batch(): 41b r 00000000 @16 -> + 00000000 @00; 5i
Debug: 248 644 batch.c:255 log_batch(): 41b - 00000000 @00 -> + 02000001 @00; 5i
Debug: 249 644 batch.c:199 log_dmi_decoded(): read: abstractcs=0x2000001 {datacount=1 progbufsize=2}
Debug: 250 644 riscv-013.c:683 abstract_cmd_batch_check_and_clear_cmderr(): [hazard3.cpu] abstractcs=0x2000001 {datacount=1 relaxedpriv=full_checks busy=ready progbufsize=2 cmderr=none}
Debug: 251 644 batch.c:291 riscv_batch_run_from(): [hazard3.cpu] Running batch of scans [0, 2)
Debug: 252 658 batch.c:255 log_batch(): 41b r 00000000 @04 -> + 02000001 @00; 5i
Debug: 253 659 batch.c:255 log_batch(): 41b - 00000000 @00 -> + 4003b6c3 @00; 5i
Debug: 254 659 batch.c:199 log_dmi_decoded(): read: 
Debug: 255 659 riscv-013.c:1654 register_read_direct(): [hazard3.cpu] fp = 0x4003b6c3
Debug: 256 659 riscv_reg.c:988 riscv_reg_get(): [hazard3.cpu] Read fp: 0x4003b6c3
Debug: 257 659 program.c:33 riscv_program_write(): [hazard3.cpu] progbuf[00] = DASM(0x30102473)
Debug: 258 659 batch.c:291 riscv_batch_run_from(): [hazard3.cpu] Running batch of scans [0, 2)
Debug: 259 673 batch.c:255 log_batch(): 41b w 30102473 @20 -> + 4003b6c3 @00; 5i
Debug: 260 673 batch.c:199 log_dmi_decoded(): write: 
Debug: 261 673 batch.c:255 log_batch(): 41b - 00000000 @00 -> + 00000000 @00; 5i
Debug: 262 673 program.c:33 riscv_program_write(): [hazard3.cpu] progbuf[01] = DASM(0x00100073)
Debug: 263 673 batch.c:291 riscv_batch_run_from(): [hazard3.cpu] Running batch of scans [0, 2)
Debug: 264 688 batch.c:255 log_batch(): 41b w 00100073 @21 -> + 00000000 @00; 5i
Debug: 265 688 batch.c:199 log_dmi_decoded(): write: 
Debug: 266 688 batch.c:255 log_batch(): 41b - 00000000 @00 -> + 00000000 @00; 5i
Debug: 267 688 riscv-013.c:748 riscv013_execute_abstract_command(): [hazard3.cpu] access register=0x241000 {regno=0x1000 write=arg0 transfer=disabled postexec=enabled aarpostincrement=disabled aarsize=32bit}
Debug: 268 688 batch.c:291 riscv_batch_run_from(): [hazard3.cpu] Running batch of scans [0, 3)
Debug: 269 703 batch.c:255 log_batch(): 41b w 00241000 @17 -> + 00000000 @00; 5i
Debug: 270 703 batch.c:199 log_dmi_decoded(): write: command=0x241000 {control=0x241000}
Debug: 271 703 batch.c:255 log_batch(): 41b r 00000000 @16 -> + 00000000 @00; 5i
Debug: 272 703 batch.c:255 log_batch(): 41b - 00000000 @00 -> + 02000001 @00; 5i
Debug: 273 703 batch.c:199 log_dmi_decoded(): read: abstractcs=0x2000001 {datacount=1 progbufsize=2}
Debug: 274 703 riscv-013.c:683 abstract_cmd_batch_check_and_clear_cmderr(): [hazard3.cpu] abstractcs=0x2000001 {datacount=1 relaxedpriv=full_checks busy=ready progbufsize=2 cmderr=none}
Debug: 275 703 riscv-013.c:748 riscv013_execute_abstract_command(): [hazard3.cpu] access register=0x221008 {regno=0x1008 write=arg0 transfer=enabled postexec=disabled aarpostincrement=disabled aarsize=32bit}
Debug: 276 703 batch.c:291 riscv_batch_run_from(): [hazard3.cpu] Running batch of scans [0, 3)
Debug: 277 718 batch.c:255 log_batch(): 41b w 00221008 @17 -> + 02000001 @00; 5i
Debug: 278 718 batch.c:199 log_dmi_decoded(): write: command=0x221008 {control=0x221008}
Debug: 279 718 batch.c:255 log_batch(): 41b r 00000000 @16 -> + 00000000 @00; 5i
Debug: 280 718 batch.c:255 log_batch(): 41b - 00000000 @00 -> + 02000001 @00; 5i
Debug: 281 718 batch.c:199 log_dmi_decoded(): read: abstractcs=0x2000001 {datacount=1 progbufsize=2}
Debug: 282 718 riscv-013.c:683 abstract_cmd_batch_check_and_clear_cmderr(): [hazard3.cpu] abstractcs=0x2000001 {datacount=1 relaxedpriv=full_checks busy=ready progbufsize=2 cmderr=none}
Debug: 283 718 batch.c:291 riscv_batch_run_from(): [hazard3.cpu] Running batch of scans [0, 2)
Debug: 284 733 batch.c:255 log_batch(): 41b r 00000000 @04 -> + 02000001 @00; 5i
Debug: 285 733 batch.c:255 log_batch(): 41b - 00000000 @00 -> + 40001105 @00; 5i
Debug: 286 733 batch.c:199 log_dmi_decoded(): read: 
Debug: 287 733 riscv-013.c:1654 register_read_direct(): [hazard3.cpu] misa = 0x40001105
Debug: 288 733 riscv_reg.c:988 riscv_reg_get(): [hazard3.cpu] Read misa: 0x40001105
Debug: 289 733 riscv-013_reg.c:249 check_misa_mxl(): [hazard3.cpu]  XLEN=32, misa=0x40001105
Debug: 290 733 riscv_reg.c:979 riscv_reg_get(): [hazard3.cpu] Reading vlenb from target
Debug: 291 733 riscv-013.c:5118 riscv013_get_register(): [hazard3.cpu] reading register vlenb
Debug: 292 733 riscv-013.c:1635 register_read_direct(): [hazard3.cpu] Reading vlenb
Debug: 293 733 riscv-013.c:1134 prep_for_register_access(): [hazard3.cpu] Preparing mstatus to access vlenb
Debug: 294 733 riscv_reg.c:979 riscv_reg_get(): [hazard3.cpu] Reading mstatus from target
Debug: 295 733 riscv-013.c:5118 riscv013_get_register(): [hazard3.cpu] reading register mstatus
Debug: 296 733 riscv-013.c:1635 register_read_direct(): [hazard3.cpu] Reading mstatus
Debug: 297 733 riscv-013.c:748 riscv013_execute_abstract_command(): [hazard3.cpu] access register=0x220300 {regno=0x300 write=arg0 transfer=enabled postexec=disabled aarpostincrement=disabled aarsize=32bit}
Debug: 298 733 batch.c:291 riscv_batch_run_from(): [hazard3.cpu] Running batch of scans [0, 3)
Debug: 299 748 batch.c:255 log_batch(): 41b w 00220300 @17 -> + 40001105 @00; 5i
Debug: 300 748 batch.c:199 log_dmi_decoded(): write: command=0x220300 {control=0x220300}
Debug: 301 748 batch.c:255 log_batch(): 41b r 00000000 @16 -> + 00000000 @00; 5i
Debug: 302 748 batch.c:255 log_batch(): 41b - 00000000 @00 -> + 02000201 @00; 5i
Debug: 303 748 batch.c:199 log_dmi_decoded(): read: abstractcs=0x2000201 {datacount=1 progbufsize=2 cmderr=not_supported}
Debug: 304 748 riscv-013.c:683 abstract_cmd_batch_check_and_clear_cmderr(): [hazard3.cpu] abstractcs=0x2000201 {datacount=1 relaxedpriv=full_checks busy=ready progbufsize=2 cmderr=not_supported}
Debug: 305 748 riscv-013.c:705 abstract_cmd_batch_check_and_clear_cmderr(): [hazard3.cpu] Abstract Command execution failed (abstractcs.cmderr = 2).
Debug: 306 748 batch.c:291 riscv_batch_run_from(): [hazard3.cpu] Running batch of scans [0, 2)
Debug: 307 763 batch.c:255 log_batch(): 41b w 00000700 @16 -> + 02000201 @00; 5i
Debug: 308 763 batch.c:199 log_dmi_decoded(): write: abstractcs=0x700 {cmderr=other}
Debug: 309 763 batch.c:255 log_batch(): 41b - 00000000 @00 -> + 02000201 @00; 5i
Debug: 310 763 riscv-013.c:733 mark_command_as_unsupported(): [hazard3.cpu] Caching the abstract command 0x220300 as not supported
Debug: 311 763 riscv-013.c:736 mark_command_as_unsupported(): [hazard3.cpu] access register=0x220300 {regno=0x300 write=arg0 transfer=enabled postexec=disabled aarpostincrement=disabled aarsize=32bit}
Debug: 312 763 riscv-013_reg.c:375 riscv013_reg_save(): [hazard3.cpu] Saving fp
Debug: 313 763 riscv_reg.c:974 riscv_reg_get(): [hazard3.cpu] Read fp: 0x4003b6c3 (cached)
Debug: 314 763 program.c:33 riscv_program_write(): [hazard3.cpu] progbuf[00] = DASM(0x30002473)
Debug: 315 763 batch.c:291 riscv_batch_run_from(): [hazard3.cpu] Running batch of scans [0, 2)
Debug: 316 778 batch.c:255 log_batch(): 41b w 30002473 @20 -> + 02000201 @00; 5i
Debug: 317 778 batch.c:199 log_dmi_decoded(): write: 
Debug: 318 778 batch.c:255 log_batch(): 41b - 00000000 @00 -> + 30102473 @00; 5i
Debug: 319 778 program.c:33 riscv_program_write(): [hazard3.cpu] progbuf[01] = DASM(0x00100073)
Debug: 320 778 riscv-013.c:5396 riscv013_write_progbuf(): [hazard3.cpu] Cache hit for 0x100073 @1
Debug: 321 778 riscv-013.c:748 riscv013_execute_abstract_command(): [hazard3.cpu] access register=0x241000 {regno=0x1000 write=arg0 transfer=disabled postexec=enabled aarpostincrement=disabled aarsize=32bit}
Debug: 322 778 batch.c:291 riscv_batch_run_from(): [hazard3.cpu] Running batch of scans [0, 3)
Debug: 323 793 batch.c:255 log_batch(): 41b w 00241000 @17 -> + 30102473 @00; 5i
Debug: 324 793 batch.c:199 log_dmi_decoded(): write: command=0x241000 {control=0x241000}
Debug: 325 793 batch.c:255 log_batch(): 41b r 00000000 @16 -> + 00000000 @00; 5i
Debug: 326 793 batch.c:255 log_batch(): 41b - 00000000 @00 -> + 02000001 @00; 5i
Debug: 327 793 batch.c:199 log_dmi_decoded(): read: abstractcs=0x2000001 {datacount=1 progbufsize=2}
Debug: 328 793 riscv-013.c:683 abstract_cmd_batch_check_and_clear_cmderr(): [hazard3.cpu] abstractcs=0x2000001 {datacount=1 relaxedpriv=full_checks busy=ready progbufsize=2 cmderr=none}
Debug: 329 793 riscv-013.c:748 riscv013_execute_abstract_command(): [hazard3.cpu] access register=0x221008 {regno=0x1008 write=arg0 transfer=enabled postexec=disabled aarpostincrement=disabled aarsize=32bit}
Debug: 330 793 batch.c:291 riscv_batch_run_from(): [hazard3.cpu] Running batch of scans [0, 3)
Debug: 331 808 batch.c:255 log_batch(): 41b w 00221008 @17 -> + 02000001 @00; 5i
Debug: 332 808 batch.c:199 log_dmi_decoded(): write: command=0x221008 {control=0x221008}
Debug: 333 808 batch.c:255 log_batch(): 41b r 00000000 @16 -> + 00000000 @00; 5i
Debug: 334 808 batch.c:255 log_batch(): 41b - 00000000 @00 -> + 02000001 @00; 5i
Debug: 335 808 batch.c:199 log_dmi_decoded(): read: abstractcs=0x2000001 {datacount=1 progbufsize=2}
Debug: 336 808 riscv-013.c:683 abstract_cmd_batch_check_and_clear_cmderr(): [hazard3.cpu] abstractcs=0x2000001 {datacount=1 relaxedpriv=full_checks busy=ready progbufsize=2 cmderr=none}
Debug: 337 808 batch.c:291 riscv_batch_run_from(): [hazard3.cpu] Running batch of scans [0, 2)
Debug: 338 822 batch.c:255 log_batch(): 41b r 00000000 @04 -> + 02000001 @00; 5i
Debug: 339 822 batch.c:255 log_batch(): 41b - 00000000 @00 -> + 00001800 @00; 5i
Debug: 340 822 batch.c:199 log_dmi_decoded(): read: 
Debug: 341 822 riscv-013.c:1654 register_read_direct(): [hazard3.cpu] mstatus = 0x1800
Debug: 342 823 riscv_reg.c:988 riscv_reg_get(): [hazard3.cpu] Read mstatus: 0x1800
Debug: 343 823 riscv_reg.c:856 riscv_set_or_write_register(): [hazard3.cpu] Writing to target: mstatus <- 0x1a00 (cacheable=false, valid=false, dirty=false)
Debug: 344 823 riscv-013.c:5134 riscv013_set_register(): [hazard3.cpu] writing 0x1a00 to register mstatus
Debug: 345 823 riscv-013.c:1606 register_write_direct(): [hazard3.cpu] Writing 0x1a00 to mstatus
Debug: 346 823 riscv-013.c:979 register_write_abstract(): [hazard3.cpu] access register=0x230300 {regno=0x300 write=register transfer=enabled postexec=disabled aarpostincrement=disabled aarsize=32bit}
Debug: 347 823 batch.c:291 riscv_batch_run_from(): [hazard3.cpu] Running batch of scans [0, 4)
Debug: 348 845 batch.c:255 log_batch(): 41b w 00001a00 @04 -> + 00001800 @00; 5i
Debug: 349 845 batch.c:199 log_dmi_decoded(): write: 
Debug: 350 845 batch.c:255 log_batch(): 41b w 00230300 @17 -> + 00001800 @00; 5i
Debug: 351 845 batch.c:199 log_dmi_decoded(): write: command=0x230300 {control=0x230300}
Debug: 352 845 batch.c:255 log_batch(): 41b r 00000000 @16 -> + 00000000 @00; 5i
Debug: 353 845 batch.c:255 log_batch(): 41b - 00000000 @00 -> + 02000201 @00; 5i
Debug: 354 845 batch.c:199 log_dmi_decoded(): read: abstractcs=0x2000201 {datacount=1 progbufsize=2 cmderr=not_supported}
Debug: 355 845 riscv-013.c:683 abstract_cmd_batch_check_and_clear_cmderr(): [hazard3.cpu] abstractcs=0x2000201 {datacount=1 relaxedpriv=full_checks busy=ready progbufsize=2 cmderr=not_supported}
Debug: 356 845 riscv-013.c:705 abstract_cmd_batch_check_and_clear_cmderr(): [hazard3.cpu] Abstract Command execution failed (abstractcs.cmderr = 2).
Debug: 357 845 batch.c:291 riscv_batch_run_from(): [hazard3.cpu] Running batch of scans [0, 2)
Debug: 358 860 batch.c:255 log_batch(): 41b w 00000700 @16 -> + 02000201 @00; 5i
Debug: 359 860 batch.c:199 log_dmi_decoded(): write: abstractcs=0x700 {cmderr=other}
Debug: 360 860 batch.c:255 log_batch(): 41b - 00000000 @00 -> + 02000201 @00; 5i
Debug: 361 860 riscv-013.c:733 mark_command_as_unsupported(): [hazard3.cpu] Caching the abstract command 0x230300 as not supported
Debug: 362 860 riscv-013.c:736 mark_command_as_unsupported(): [hazard3.cpu] access register=0x230300 {regno=0x300 write=register transfer=enabled postexec=disabled aarpostincrement=disabled aarsize=32bit}
Debug: 363 860 riscv-013_reg.c:375 riscv013_reg_save(): [hazard3.cpu] Saving fp
Debug: 364 860 riscv_reg.c:974 riscv_reg_get(): [hazard3.cpu] Read fp: 0x4003b6c3 (cached)
Debug: 365 860 riscv-013.c:979 register_write_abstract(): [hazard3.cpu] access register=0x231008 {regno=0x1008 write=register transfer=enabled postexec=disabled aarpostincrement=disabled aarsize=32bit}
Debug: 366 860 batch.c:291 riscv_batch_run_from(): [hazard3.cpu] Running batch of scans [0, 4)
Debug: 367 882 batch.c:255 log_batch(): 41b w 00001a00 @04 -> + 02000201 @00; 5i
Debug: 368 882 batch.c:199 log_dmi_decoded(): write: 
Debug: 369 882 batch.c:255 log_batch(): 41b w 00231008 @17 -> + 00001a00 @00; 5i
Debug: 370 882 batch.c:199 log_dmi_decoded(): write: command=0x231008 {control=0x231008}
Debug: 371 882 batch.c:255 log_batch(): 41b r 00000000 @16 -> + 00000000 @00; 5i
Debug: 372 882 batch.c:255 log_batch(): 41b - 00000000 @00 -> + 02000001 @00; 5i
Debug: 373 882 batch.c:199 log_dmi_decoded(): read: abstractcs=0x2000001 {datacount=1 progbufsize=2}
Debug: 374 882 riscv-013.c:683 abstract_cmd_batch_check_and_clear_cmderr(): [hazard3.cpu] abstractcs=0x2000001 {datacount=1 relaxedpriv=full_checks busy=ready progbufsize=2 cmderr=none}
Debug: 375 882 program.c:33 riscv_program_write(): [hazard3.cpu] progbuf[00] = DASM(0x30041073)
Debug: 376 882 batch.c:291 riscv_batch_run_from(): [hazard3.cpu] Running batch of scans [0, 2)
Debug: 377 897 batch.c:255 log_batch(): 41b w 30041073 @20 -> + 02000001 @00; 5i
Debug: 378 897 batch.c:199 log_dmi_decoded(): write: 
Debug: 379 897 batch.c:255 log_batch(): 41b - 00000000 @00 -> + 30002473 @00; 5i
Debug: 380 897 program.c:33 riscv_program_write(): [hazard3.cpu] progbuf[01] = DASM(0x00100073)
Debug: 381 897 riscv-013.c:5396 riscv013_write_progbuf(): [hazard3.cpu] Cache hit for 0x100073 @1
Debug: 382 897 riscv-013.c:748 riscv013_execute_abstract_command(): [hazard3.cpu] access register=0x241000 {regno=0x1000 write=arg0 transfer=disabled postexec=enabled aarpostincrement=disabled aarsize=32bit}
Debug: 383 897 batch.c:291 riscv_batch_run_from(): [hazard3.cpu] Running batch of scans [0, 3)
Debug: 384 912 batch.c:255 log_batch(): 41b w 00241000 @17 -> + 30002473 @00; 5i
Debug: 385 912 batch.c:199 log_dmi_decoded(): write: command=0x241000 {control=0x241000}
Debug: 386 912 batch.c:255 log_batch(): 41b r 00000000 @16 -> + 00000000 @00; 5i
Debug: 387 912 batch.c:255 log_batch(): 41b - 00000000 @00 -> + 02000001 @00; 5i
Debug: 388 912 batch.c:199 log_dmi_decoded(): read: abstractcs=0x2000001 {datacount=1 progbufsize=2}
Debug: 389 912 riscv-013.c:683 abstract_cmd_batch_check_and_clear_cmderr(): [hazard3.cpu] abstractcs=0x2000001 {datacount=1 relaxedpriv=full_checks busy=ready progbufsize=2 cmderr=none}
Debug: 390 912 riscv-013.c:1625 register_write_direct(): [hazard3.cpu] mstatus <- 0x1a00
Debug: 391 912 riscv_reg.c:872 riscv_set_or_write_register(): [hazard3.cpu] Wrote 0x1a00 to mstatus (cacheable=false, valid=false, dirty=false)
Debug: 392 912 riscv-013.c:1154 prep_for_register_access(): [hazard3.cpu] Prepared to access vlenb (mstatus=0x1a00)
Debug: 393 912 riscv-013.c:748 riscv013_execute_abstract_command(): [hazard3.cpu] access register=0x220c22 {regno=0xc22 write=arg0 transfer=enabled postexec=disabled aarpostincrement=disabled aarsize=32bit}
Debug: 394 912 batch.c:291 riscv_batch_run_from(): [hazard3.cpu] Running batch of scans [0, 3)
Debug: 395 927 batch.c:255 log_batch(): 41b w 00220c22 @17 -> + 02000001 @00; 5i
Debug: 396 927 batch.c:199 log_dmi_decoded(): write: command=0x220c22 {control=0x220c22}
Debug: 397 927 batch.c:255 log_batch(): 41b r 00000000 @16 -> + 00000000 @00; 5i
Debug: 398 927 batch.c:255 log_batch(): 41b - 00000000 @00 -> + 02000201 @00; 5i
Debug: 399 927 batch.c:199 log_dmi_decoded(): read: abstractcs=0x2000201 {datacount=1 progbufsize=2 cmderr=not_supported}
Debug: 400 927 riscv-013.c:683 abstract_cmd_batch_check_and_clear_cmderr(): [hazard3.cpu] abstractcs=0x2000201 {datacount=1 relaxedpriv=full_checks busy=ready progbufsize=2 cmderr=not_supported}
Debug: 401 927 riscv-013.c:705 abstract_cmd_batch_check_and_clear_cmderr(): [hazard3.cpu] Abstract Command execution failed (abstractcs.cmderr = 2).
Debug: 402 927 batch.c:291 riscv_batch_run_from(): [hazard3.cpu] Running batch of scans [0, 2)
Debug: 403 942 batch.c:255 log_batch(): 41b w 00000700 @16 -> + 02000201 @00; 5i
Debug: 404 942 batch.c:199 log_dmi_decoded(): write: abstractcs=0x700 {cmderr=other}
Debug: 405 942 batch.c:255 log_batch(): 41b - 00000000 @00 -> + 02000201 @00; 5i
Debug: 406 942 riscv-013.c:733 mark_command_as_unsupported(): [hazard3.cpu] Caching the abstract command 0x220c22 as not supported
Debug: 407 942 riscv-013.c:736 mark_command_as_unsupported(): [hazard3.cpu] access register=0x220c22 {regno=0xc22 write=arg0 transfer=enabled postexec=disabled aarpostincrement=disabled aarsize=32bit}
Debug: 408 942 riscv-013_reg.c:375 riscv013_reg_save(): [hazard3.cpu] Saving fp
Debug: 409 942 riscv_reg.c:974 riscv_reg_get(): [hazard3.cpu] Read fp: 0x4003b6c3 (cached)
Debug: 410 942 program.c:33 riscv_program_write(): [hazard3.cpu] progbuf[00] = DASM(0xc2202473)
Debug: 411 942 batch.c:291 riscv_batch_run_from(): [hazard3.cpu] Running batch of scans [0, 2)
Debug: 412 957 batch.c:255 log_batch(): 41b w c2202473 @20 -> + 02000201 @00; 5i
Debug: 413 957 batch.c:199 log_dmi_decoded(): write: 
Debug: 414 957 batch.c:255 log_batch(): 41b - 00000000 @00 -> + 30041073 @00; 5i
Debug: 415 957 program.c:33 riscv_program_write(): [hazard3.cpu] progbuf[01] = DASM(0x00100073)
Debug: 416 957 riscv-013.c:5396 riscv013_write_progbuf(): [hazard3.cpu] Cache hit for 0x100073 @1
Debug: 417 957 riscv-013.c:748 riscv013_execute_abstract_command(): [hazard3.cpu] access register=0x241000 {regno=0x1000 write=arg0 transfer=disabled postexec=enabled aarpostincrement=disabled aarsize=32bit}
Debug: 418 957 batch.c:291 riscv_batch_run_from(): [hazard3.cpu] Running batch of scans [0, 3)
Debug: 419 972 batch.c:255 log_batch(): 41b w 00241000 @17 -> + 30041073 @00; 5i
Debug: 420 972 batch.c:199 log_dmi_decoded(): write: command=0x241000 {control=0x241000}
Debug: 421 972 batch.c:255 log_batch(): 41b r 00000000 @16 -> + 00000000 @00; 5i
Debug: 422 972 batch.c:255 log_batch(): 41b - 00000000 @00 -> + 02000301 @00; 5i
Debug: 423 972 batch.c:199 log_dmi_decoded(): read: abstractcs=0x2000301 {datacount=1 progbufsize=2 cmderr=exception}
Debug: 424 972 riscv-013.c:683 abstract_cmd_batch_check_and_clear_cmderr(): [hazard3.cpu] abstractcs=0x2000301 {datacount=1 relaxedpriv=full_checks busy=ready progbufsize=2 cmderr=exception}
Debug: 425 972 riscv-013.c:705 abstract_cmd_batch_check_and_clear_cmderr(): [hazard3.cpu] Abstract Command execution failed (abstractcs.cmderr = 3).
Debug: 426 972 batch.c:291 riscv_batch_run_from(): [hazard3.cpu] Running batch of scans [0, 2)
Debug: 427 987 batch.c:255 log_batch(): 41b w 00000700 @16 -> + 02000301 @00; 5i
Debug: 428 987 batch.c:199 log_dmi_decoded(): write: abstractcs=0x700 {cmderr=other}
Debug: 429 987 batch.c:255 log_batch(): 41b - 00000000 @00 -> + 02000301 @00; 5i
Debug: 430 987 program.c:65 riscv_program_exec(): [hazard3.cpu] Unable to execute program 0x7ffd4213c260
Debug: 431 987 riscv-013.c:1166 cleanup_after_register_access(): [hazard3.cpu] Restoring mstatus to 0x1800
Debug: 432 987 riscv_reg.c:856 riscv_set_or_write_register(): [hazard3.cpu] Writing to target: mstatus <- 0x1800 (cacheable=false, valid=false, dirty=false)
Debug: 433 987 riscv-013.c:5134 riscv013_set_register(): [hazard3.cpu] writing 0x1800 to register mstatus
Debug: 434 987 riscv-013.c:1606 register_write_direct(): [hazard3.cpu] Writing 0x1800 to mstatus
Debug: 435 987 riscv-013.c:927 is_command_unsupported(): [hazard3.cpu] Abstract command 0x230300 is cached as not supported
Debug: 436 987 riscv-013.c:930 is_command_unsupported(): [hazard3.cpu] access register=0x230300 {regno=0x300 write=register transfer=enabled postexec=disabled aarpostincrement=disabled aarsize=32bit}
Debug: 437 987 riscv-013_reg.c:375 riscv013_reg_save(): [hazard3.cpu] Saving fp
Debug: 438 987 riscv_reg.c:974 riscv_reg_get(): [hazard3.cpu] Read fp: 0x4003b6c3 (cached)
Debug: 439 987 riscv-013.c:979 register_write_abstract(): [hazard3.cpu] access register=0x231008 {regno=0x1008 write=register transfer=enabled postexec=disabled aarpostincrement=disabled aarsize=32bit}
Debug: 440 987 batch.c:291 riscv_batch_run_from(): [hazard3.cpu] Running batch of scans [0, 4)
Debug: 441 1009 batch.c:255 log_batch(): 41b w 00001800 @04 -> + 02000301 @00; 5i
Debug: 442 1009 batch.c:199 log_dmi_decoded(): write: 
Debug: 443 1009 batch.c:255 log_batch(): 41b w 00231008 @17 -> + 00001a00 @00; 5i
Debug: 444 1009 batch.c:199 log_dmi_decoded(): write: command=0x231008 {control=0x231008}
Debug: 445 1009 batch.c:255 log_batch(): 41b r 00000000 @16 -> + 00000000 @00; 5i
Debug: 446 1009 batch.c:255 log_batch(): 41b - 00000000 @00 -> + 02000001 @00; 5i
Debug: 447 1009 batch.c:199 log_dmi_decoded(): read: abstractcs=0x2000001 {datacount=1 progbufsize=2}
Debug: 448 1009 riscv-013.c:683 abstract_cmd_batch_check_and_clear_cmderr(): [hazard3.cpu] abstractcs=0x2000001 {datacount=1 relaxedpriv=full_checks busy=ready progbufsize=2 cmderr=none}
Debug: 449 1009 program.c:33 riscv_program_write(): [hazard3.cpu] progbuf[00] = DASM(0x30041073)
Debug: 450 1009 batch.c:291 riscv_batch_run_from(): [hazard3.cpu] Running batch of scans [0, 2)
Debug: 451 1024 batch.c:255 log_batch(): 41b w 30041073 @20 -> + 02000001 @00; 5i
Debug: 452 1024 batch.c:199 log_dmi_decoded(): write: 
Debug: 453 1024 batch.c:255 log_batch(): 41b - 00000000 @00 -> + c2202473 @00; 5i
Debug: 454 1024 program.c:33 riscv_program_write(): [hazard3.cpu] progbuf[01] = DASM(0x00100073)
Debug: 455 1024 riscv-013.c:5396 riscv013_write_progbuf(): [hazard3.cpu] Cache hit for 0x100073 @1
Debug: 456 1024 riscv-013.c:748 riscv013_execute_abstract_command(): [hazard3.cpu] access register=0x241000 {regno=0x1000 write=arg0 transfer=disabled postexec=enabled aarpostincrement=disabled aarsize=32bit}
Debug: 457 1024 batch.c:291 riscv_batch_run_from(): [hazard3.cpu] Running batch of scans [0, 3)
Debug: 458 1039 batch.c:255 log_batch(): 41b w 00241000 @17 -> + c2202473 @00; 5i
Debug: 459 1039 batch.c:199 log_dmi_decoded(): write: command=0x241000 {control=0x241000}
Debug: 460 1039 batch.c:255 log_batch(): 41b r 00000000 @16 -> + 00000000 @00; 5i
Debug: 461 1039 batch.c:255 log_batch(): 41b - 00000000 @00 -> + 02000001 @00; 5i
Debug: 462 1039 batch.c:199 log_dmi_decoded(): read: abstractcs=0x2000001 {datacount=1 progbufsize=2}
Debug: 463 1039 riscv-013.c:683 abstract_cmd_batch_check_and_clear_cmderr(): [hazard3.cpu] abstractcs=0x2000001 {datacount=1 relaxedpriv=full_checks busy=ready progbufsize=2 cmderr=none}
Debug: 464 1039 riscv-013.c:1625 register_write_direct(): [hazard3.cpu] mstatus <- 0x1800
Debug: 465 1039 riscv_reg.c:872 riscv_set_or_write_register(): [hazard3.cpu] Wrote 0x1800 to mstatus (cacheable=false, valid=false, dirty=false)
Debug: 466 1039 riscv_reg.c:979 riscv_reg_get(): [hazard3.cpu] Reading mtopi from target
Debug: 467 1039 riscv-013.c:5118 riscv013_get_register(): [hazard3.cpu] reading register mtopi
Debug: 468 1039 riscv-013.c:1635 register_read_direct(): [hazard3.cpu] Reading mtopi
Debug: 469 1039 riscv-013.c:748 riscv013_execute_abstract_command(): [hazard3.cpu] access register=0x220fb0 {regno=0xfb0 write=arg0 transfer=enabled postexec=disabled aarpostincrement=disabled aarsize=32bit}
Debug: 470 1039 batch.c:291 riscv_batch_run_from(): [hazard3.cpu] Running batch of scans [0, 3)
Debug: 471 1054 batch.c:255 log_batch(): 41b w 00220fb0 @17 -> + 02000001 @00; 5i
Debug: 472 1054 batch.c:199 log_dmi_decoded(): write: command=0x220fb0 {control=0x220fb0}
Debug: 473 1054 batch.c:255 log_batch(): 41b r 00000000 @16 -> + 00000000 @00; 5i
Debug: 474 1054 batch.c:255 log_batch(): 41b - 00000000 @00 -> + 02000201 @00; 5i
Debug: 475 1054 batch.c:199 log_dmi_decoded(): read: abstractcs=0x2000201 {datacount=1 progbufsize=2 cmderr=not_supported}
Debug: 476 1054 riscv-013.c:683 abstract_cmd_batch_check_and_clear_cmderr(): [hazard3.cpu] abstractcs=0x2000201 {datacount=1 relaxedpriv=full_checks busy=ready progbufsize=2 cmderr=not_supported}
Debug: 477 1054 riscv-013.c:705 abstract_cmd_batch_check_and_clear_cmderr(): [hazard3.cpu] Abstract Command execution failed (abstractcs.cmderr = 2).
Debug: 478 1054 batch.c:291 riscv_batch_run_from(): [hazard3.cpu] Running batch of scans [0, 2)
Debug: 479 1069 batch.c:255 log_batch(): 41b w 00000700 @16 -> + 02000201 @00; 5i
Debug: 480 1069 batch.c:199 log_dmi_decoded(): write: abstractcs=0x700 {cmderr=other}
Debug: 481 1069 batch.c:255 log_batch(): 41b - 00000000 @00 -> + 02000201 @00; 5i
Debug: 482 1069 riscv-013.c:733 mark_command_as_unsupported(): [hazard3.cpu] Caching the abstract command 0x220fb0 as not supported
Debug: 483 1069 riscv-013.c:736 mark_command_as_unsupported(): [hazard3.cpu] access register=0x220fb0 {regno=0xfb0 write=arg0 transfer=enabled postexec=disabled aarpostincrement=disabled aarsize=32bit}
Debug: 484 1069 riscv-013_reg.c:375 riscv013_reg_save(): [hazard3.cpu] Saving fp
Debug: 485 1069 riscv_reg.c:974 riscv_reg_get(): [hazard3.cpu] Read fp: 0x4003b6c3 (cached)
Debug: 486 1069 program.c:33 riscv_program_write(): [hazard3.cpu] progbuf[00] = DASM(0xfb002473)
Debug: 487 1069 batch.c:291 riscv_batch_run_from(): [hazard3.cpu] Running batch of scans [0, 2)
Debug: 488 1084 batch.c:255 log_batch(): 41b w fb002473 @20 -> + 02000201 @00; 5i
Debug: 489 1084 batch.c:199 log_dmi_decoded(): write: 
Debug: 490 1084 batch.c:255 log_batch(): 41b - 00000000 @00 -> + 30041073 @00; 5i
Debug: 491 1084 program.c:33 riscv_program_write(): [hazard3.cpu] progbuf[01] = DASM(0x00100073)
Debug: 492 1084 riscv-013.c:5396 riscv013_write_progbuf(): [hazard3.cpu] Cache hit for 0x100073 @1
Debug: 493 1084 riscv-013.c:748 riscv013_execute_abstract_command(): [hazard3.cpu] access register=0x241000 {regno=0x1000 write=arg0 transfer=disabled postexec=enabled aarpostincrement=disabled aarsize=32bit}
Debug: 494 1084 batch.c:291 riscv_batch_run_from(): [hazard3.cpu] Running batch of scans [0, 3)
Debug: 495 1099 batch.c:255 log_batch(): 41b w 00241000 @17 -> + 30041073 @00; 5i
Debug: 496 1099 batch.c:199 log_dmi_decoded(): write: command=0x241000 {control=0x241000}
Debug: 497 1099 batch.c:255 log_batch(): 41b r 00000000 @16 -> + 00000000 @00; 5i
Debug: 498 1099 batch.c:255 log_batch(): 41b - 00000000 @00 -> + 02000301 @00; 5i
Debug: 499 1099 batch.c:199 log_dmi_decoded(): read: abstractcs=0x2000301 {datacount=1 progbufsize=2 cmderr=exception}
Debug: 500 1099 riscv-013.c:683 abstract_cmd_batch_check_and_clear_cmderr(): [hazard3.cpu] abstractcs=0x2000301 {datacount=1 relaxedpriv=full_checks busy=ready progbufsize=2 cmderr=exception}
Debug: 501 1099 riscv-013.c:705 abstract_cmd_batch_check_and_clear_cmderr(): [hazard3.cpu] Abstract Command execution failed (abstractcs.cmderr = 3).
Debug: 502 1099 batch.c:291 riscv_batch_run_from(): [hazard3.cpu] Running batch of scans [0, 2)
Debug: 503 1114 batch.c:255 log_batch(): 41b w 00000700 @16 -> + 02000301 @00; 5i
Debug: 504 1114 batch.c:199 log_dmi_decoded(): write: abstractcs=0x700 {cmderr=other}
Debug: 505 1114 batch.c:255 log_batch(): 41b - 00000000 @00 -> + 02000301 @00; 5i
Debug: 506 1114 program.c:65 riscv_program_exec(): [hazard3.cpu] Unable to execute program 0x7ffd4213c260
Debug: 507 1115 riscv-013.c:1685 set_dcsr_ebreak(): [hazard3.cpu] Set dcsr.ebreak*
Debug: 508 1115 riscv_reg.c:979 riscv_reg_get(): [hazard3.cpu] Reading dcsr from target
Debug: 509 1115 riscv-013.c:5118 riscv013_get_register(): [hazard3.cpu] reading register dcsr
Debug: 510 1115 riscv-013.c:1635 register_read_direct(): [hazard3.cpu] Reading dcsr
Debug: 511 1115 riscv-013.c:748 riscv013_execute_abstract_command(): [hazard3.cpu] access register=0x2207b0 {regno=0x7b0 write=arg0 transfer=enabled postexec=disabled aarpostincrement=disabled aarsize=32bit}
Debug: 512 1115 batch.c:291 riscv_batch_run_from(): [hazard3.cpu] Running batch of scans [0, 3)
Debug: 513 1129 batch.c:255 log_batch(): 41b w 002207b0 @17 -> + 02000301 @00; 5i
Debug: 514 1129 batch.c:199 log_dmi_decoded(): write: command=0x2207b0 {control=0x2207b0}
Debug: 515 1129 batch.c:255 log_batch(): 41b r 00000000 @16 -> + 00000000 @00; 5i
Debug: 516 1129 batch.c:255 log_batch(): 41b - 00000000 @00 -> + 02000201 @00; 5i
Debug: 517 1129 batch.c:199 log_dmi_decoded(): read: abstractcs=0x2000201 {datacount=1 progbufsize=2 cmderr=not_supported}
Debug: 518 1129 riscv-013.c:683 abstract_cmd_batch_check_and_clear_cmderr(): [hazard3.cpu] abstractcs=0x2000201 {datacount=1 relaxedpriv=full_checks busy=ready progbufsize=2 cmderr=not_supported}
Debug: 519 1129 riscv-013.c:705 abstract_cmd_batch_check_and_clear_cmderr(): [hazard3.cpu] Abstract Command execution failed (abstractcs.cmderr = 2).
Debug: 520 1129 batch.c:291 riscv_batch_run_from(): [hazard3.cpu] Running batch of scans [0, 2)
Debug: 521 1144 batch.c:255 log_batch(): 41b w 00000700 @16 -> + 02000201 @00; 5i
Debug: 522 1144 batch.c:199 log_dmi_decoded(): write: abstractcs=0x700 {cmderr=other}
Debug: 523 1144 batch.c:255 log_batch(): 41b - 00000000 @00 -> + 02000201 @00; 5i
Debug: 524 1144 riscv-013.c:733 mark_command_as_unsupported(): [hazard3.cpu] Caching the abstract command 0x2207b0 as not supported
Debug: 525 1144 riscv-013.c:736 mark_command_as_unsupported(): [hazard3.cpu] access register=0x2207b0 {regno=0x7b0 write=arg0 transfer=enabled postexec=disabled aarpostincrement=disabled aarsize=32bit}
Debug: 526 1144 riscv-013_reg.c:375 riscv013_reg_save(): [hazard3.cpu] Saving fp
Debug: 527 1144 riscv_reg.c:974 riscv_reg_get(): [hazard3.cpu] Read fp: 0x4003b6c3 (cached)
Debug: 528 1144 program.c:33 riscv_program_write(): [hazard3.cpu] progbuf[00] = DASM(0x7b002473)
Debug: 529 1144 batch.c:291 riscv_batch_run_from(): [hazard3.cpu] Running batch of scans [0, 2)
Debug: 530 1159 batch.c:255 log_batch(): 41b w 7b002473 @20 -> + 02000201 @00; 5i
Debug: 531 1159 batch.c:199 log_dmi_decoded(): write: 
Debug: 532 1159 batch.c:255 log_batch(): 41b - 00000000 @00 -> + fb002473 @00; 5i
Debug: 533 1159 program.c:33 riscv_program_write(): [hazard3.cpu] progbuf[01] = DASM(0x00100073)
Debug: 534 1159 riscv-013.c:5396 riscv013_write_progbuf(): [hazard3.cpu] Cache hit for 0x100073 @1
Debug: 535 1159 riscv-013.c:748 riscv013_execute_abstract_command(): [hazard3.cpu] access register=0x241000 {regno=0x1000 write=arg0 transfer=disabled postexec=enabled aarpostincrement=disabled aarsize=32bit}
Debug: 536 1159 batch.c:291 riscv_batch_run_from(): [hazard3.cpu] Running batch of scans [0, 3)
Debug: 537 1174 batch.c:255 log_batch(): 41b w 00241000 @17 -> + fb002473 @00; 5i
Debug: 538 1174 batch.c:199 log_dmi_decoded(): write: command=0x241000 {control=0x241000}
Debug: 539 1174 batch.c:255 log_batch(): 41b r 00000000 @16 -> + 00000000 @00; 5i
Debug: 540 1174 batch.c:255 log_batch(): 41b - 00000000 @00 -> + 02000001 @00; 5i
Debug: 541 1174 batch.c:199 log_dmi_decoded(): read: abstractcs=0x2000001 {datacount=1 progbufsize=2}
Debug: 542 1174 riscv-013.c:683 abstract_cmd_batch_check_and_clear_cmderr(): [hazard3.cpu] abstractcs=0x2000001 {datacount=1 relaxedpriv=full_checks busy=ready progbufsize=2 cmderr=none}
Debug: 543 1174 riscv-013.c:748 riscv013_execute_abstract_command(): [hazard3.cpu] access register=0x221008 {regno=0x1008 write=arg0 transfer=enabled postexec=disabled aarpostincrement=disabled aarsize=32bit}
Debug: 544 1174 batch.c:291 riscv_batch_run_from(): [hazard3.cpu] Running batch of scans [0, 3)
Debug: 545 1188 batch.c:255 log_batch(): 41b w 00221008 @17 -> + 02000001 @00; 5i
Debug: 546 1189 batch.c:199 log_dmi_decoded(): write: command=0x221008 {control=0x221008}
Debug: 547 1189 batch.c:255 log_batch(): 41b r 00000000 @16 -> + 00000000 @00; 5i
Debug: 548 1189 batch.c:255 log_batch(): 41b - 00000000 @00 -> + 02000001 @00; 5i
Debug: 549 1189 batch.c:199 log_dmi_decoded(): read: abstractcs=0x2000001 {datacount=1 progbufsize=2}
Debug: 550 1189 riscv-013.c:683 abstract_cmd_batch_check_and_clear_cmderr(): [hazard3.cpu] abstractcs=0x2000001 {datacount=1 relaxedpriv=full_checks busy=ready progbufsize=2 cmderr=none}
Debug: 551 1189 batch.c:291 riscv_batch_run_from(): [hazard3.cpu] Running batch of scans [0, 2)
Debug: 552 1203 batch.c:255 log_batch(): 41b r 00000000 @04 -> + 02000001 @00; 5i
Debug: 553 1203 batch.c:255 log_batch(): 41b - 00000000 @00 -> + 400086c3 @00; 5i
Debug: 554 1203 batch.c:199 log_dmi_decoded(): read: 
Debug: 555 1203 riscv-013.c:1654 register_read_direct(): [hazard3.cpu] dcsr = 0x400086c3
Debug: 556 1203 riscv_reg.c:988 riscv_reg_get(): [hazard3.cpu] Read dcsr: 0x400086c3
Debug: 557 1203 riscv_reg.c:856 riscv_set_or_write_register(): [hazard3.cpu] Writing to target: dcsr <- 0x4003b6c3 (cacheable=false, valid=true, dirty=false)
Debug: 558 1203 riscv-013.c:5134 riscv013_set_register(): [hazard3.cpu] writing 0x4003b6c3 to register dcsr
Debug: 559 1203 riscv-013.c:1606 register_write_direct(): [hazard3.cpu] Writing 0x4003b6c3 to dcsr
Debug: 560 1203 riscv-013.c:979 register_write_abstract(): [hazard3.cpu] access register=0x2307b0 {regno=0x7b0 write=register transfer=enabled postexec=disabled aarpostincrement=disabled aarsize=32bit}
Debug: 561 1203 batch.c:291 riscv_batch_run_from(): [hazard3.cpu] Running batch of scans [0, 4)
Debug: 562 1226 batch.c:255 log_batch(): 41b w 4003b6c3 @04 -> + 400086c3 @00; 5i
Debug: 563 1226 batch.c:199 log_dmi_decoded(): write: 
Debug: 564 1226 batch.c:255 log_batch(): 41b w 002307b0 @17 -> + 400086c3 @00; 5i
Debug: 565 1226 batch.c:199 log_dmi_decoded(): write: command=0x2307b0 {control=0x2307b0}
Debug: 566 1226 batch.c:255 log_batch(): 41b r 00000000 @16 -> + 00000000 @00; 5i
Debug: 567 1226 batch.c:255 log_batch(): 41b - 00000000 @00 -> + 02000201 @00; 5i
Debug: 568 1226 batch.c:199 log_dmi_decoded(): read: abstractcs=0x2000201 {datacount=1 progbufsize=2 cmderr=not_supported}
Debug: 569 1226 riscv-013.c:683 abstract_cmd_batch_check_and_clear_cmderr(): [hazard3.cpu] abstractcs=0x2000201 {datacount=1 relaxedpriv=full_checks busy=ready progbufsize=2 cmderr=not_supported}
Debug: 570 1226 riscv-013.c:705 abstract_cmd_batch_check_and_clear_cmderr(): [hazard3.cpu] Abstract Command execution failed (abstractcs.cmderr = 2).
Debug: 571 1226 batch.c:291 riscv_batch_run_from(): [hazard3.cpu] Running batch of scans [0, 2)
Debug: 572 1241 batch.c:255 log_batch(): 41b w 00000700 @16 -> + 02000201 @00; 5i
Debug: 573 1241 batch.c:199 log_dmi_decoded(): write: abstractcs=0x700 {cmderr=other}
Debug: 574 1241 batch.c:255 log_batch(): 41b - 00000000 @00 -> + 02000201 @00; 5i
Debug: 575 1241 riscv-013.c:733 mark_command_as_unsupported(): [hazard3.cpu] Caching the abstract command 0x2307b0 as not supported
Debug: 576 1241 riscv-013.c:736 mark_command_as_unsupported(): [hazard3.cpu] access register=0x2307b0 {regno=0x7b0 write=register transfer=enabled postexec=disabled aarpostincrement=disabled aarsize=32bit}
Debug: 577 1241 riscv-013_reg.c:375 riscv013_reg_save(): [hazard3.cpu] Saving fp
Debug: 578 1241 riscv_reg.c:974 riscv_reg_get(): [hazard3.cpu] Read fp: 0x4003b6c3 (cached)
Debug: 579 1241 riscv-013.c:979 register_write_abstract(): [hazard3.cpu] access register=0x231008 {regno=0x1008 write=register transfer=enabled postexec=disabled aarpostincrement=disabled aarsize=32bit}
Debug: 580 1241 batch.c:291 riscv_batch_run_from(): [hazard3.cpu] Running batch of scans [0, 4)
Debug: 581 1263 batch.c:255 log_batch(): 41b w 4003b6c3 @04 -> + 02000201 @00; 5i
Debug: 582 1263 batch.c:199 log_dmi_decoded(): write: 
Debug: 583 1263 batch.c:255 log_batch(): 41b w 00231008 @17 -> + 4003b6c3 @00; 5i
Debug: 584 1263 batch.c:199 log_dmi_decoded(): write: command=0x231008 {control=0x231008}
Debug: 585 1263 batch.c:255 log_batch(): 41b r 00000000 @16 -> + 00000000 @00; 5i
Debug: 586 1263 batch.c:255 log_batch(): 41b - 00000000 @00 -> + 02000001 @00; 5i
Debug: 587 1263 batch.c:199 log_dmi_decoded(): read: abstractcs=0x2000001 {datacount=1 progbufsize=2}
Debug: 588 1263 riscv-013.c:683 abstract_cmd_batch_check_and_clear_cmderr(): [hazard3.cpu] abstractcs=0x2000001 {datacount=1 relaxedpriv=full_checks busy=ready progbufsize=2 cmderr=none}
Debug: 589 1263 program.c:33 riscv_program_write(): [hazard3.cpu] progbuf[00] = DASM(0x7b041073)
Debug: 590 1263 batch.c:291 riscv_batch_run_from(): [hazard3.cpu] Running batch of scans [0, 2)
Debug: 591 1278 batch.c:255 log_batch(): 41b w 7b041073 @20 -> + 02000001 @00; 5i
Debug: 592 1278 batch.c:199 log_dmi_decoded(): write: 
Debug: 593 1278 batch.c:255 log_batch(): 41b - 00000000 @00 -> + 7b002473 @00; 5i
Debug: 594 1278 program.c:33 riscv_program_write(): [hazard3.cpu] progbuf[01] = DASM(0x00100073)
Debug: 595 1278 riscv-013.c:5396 riscv013_write_progbuf(): [hazard3.cpu] Cache hit for 0x100073 @1
Debug: 596 1278 riscv-013.c:748 riscv013_execute_abstract_command(): [hazard3.cpu] access register=0x241000 {regno=0x1000 write=arg0 transfer=disabled postexec=enabled aarpostincrement=disabled aarsize=32bit}
Debug: 597 1278 batch.c:291 riscv_batch_run_from(): [hazard3.cpu] Running batch of scans [0, 3)
Debug: 598 1293 batch.c:255 log_batch(): 41b w 00241000 @17 -> + 7b002473 @00; 5i
Debug: 599 1293 batch.c:199 log_dmi_decoded(): write: command=0x241000 {control=0x241000}
Debug: 600 1293 batch.c:255 log_batch(): 41b r 00000000 @16 -> + 00000000 @00; 5i
Debug: 601 1293 batch.c:255 log_batch(): 41b - 00000000 @00 -> + 02000001 @00; 5i
Debug: 602 1293 batch.c:199 log_dmi_decoded(): read: abstractcs=0x2000001 {datacount=1 progbufsize=2}
Debug: 603 1293 riscv-013.c:683 abstract_cmd_batch_check_and_clear_cmderr(): [hazard3.cpu] abstractcs=0x2000001 {datacount=1 relaxedpriv=full_checks busy=ready progbufsize=2 cmderr=none}
Debug: 604 1293 riscv-013.c:1625 register_write_direct(): [hazard3.cpu] dcsr <- 0x4003b6c3
Debug: 605 1293 riscv_reg.c:872 riscv_set_or_write_register(): [hazard3.cpu] Wrote 0x4003b6c3 to dcsr (cacheable=false, valid=false, dirty=false)
Info : 606 1293 riscv-013.c:2167 examine(): [hazard3.cpu] Examined RISC-V core
Info : 607 1293 riscv-013.c:2168 examine(): [hazard3.cpu]  XLEN=32, misa=0x40001105
User : 608 1293 target.c:697 target_examine_one(): [hazard3.cpu] Target successfully examined.
Debug: 609 1293 target.c:1789 target_call_event_callbacks(): target event 21 (examine-end) for core hazard3.cpu
Info : 610 1293 target.c:701 target_examine_one(): [hazard3.cpu] Examination succeed
Debug: 611 1293 command.c:86 script_debug(): command - flash init
Debug: 612 1293 tcl.c:1365 handle_flash_init_command(): Initializing flash devices...
Debug: 613 1293 command.c:86 script_debug(): command - nand init
Debug: 614 1293 tcl.c:484 handle_nand_init_command(): Initializing NAND devices...
Debug: 615 1293 command.c:86 script_debug(): command - pld init
Debug: 616 1293 pld.c:337 handle_pld_init_command(): Initializing PLDs...
Debug: 617 1293 command.c:86 script_debug(): command - tpiu init
Info : 618 1293 gdb_server.c:3927 gdb_target_start(): [hazard3.cpu] starting gdb server on 3333
Info : 619 1293 server.c:298 add_service(): Listening on port 3333 for gdb connections
Debug: 620 1293 command.c:86 script_debug(): command - target names
Debug: 621 1293 command.c:86 script_debug(): command - target names
Debug: 622 1293 command.c:86 script_debug(): command - hazard3.cpu cget -type
Debug: 623 1293 command.c:86 script_debug(): command - halt
Debug: 624 1293 target.c:3253 handle_halt_command(): -
Debug: 625 1293 riscv.c:2719 riscv_halt(): [hazard3.cpu] halting all harts
Debug: 626 1293 riscv.c:2640 halt_prep(): [hazard3.cpu] prep hart, debug_reason=8
Debug: 627 1293 riscv.c:2643 halt_prep(): [hazard3.cpu] Hart is already halted.
Debug: 628 1293 batch.c:291 riscv_batch_run_from(): [hazard3.cpu] Running batch of scans [0, 2)
Debug: 629 1308 batch.c:255 log_batch(): 41b r 00000000 @11 -> + 02000001 @00; 5i
Debug: 630 1308 batch.c:255 log_batch(): 41b - 00000000 @00 -> + 004003a2 @00; 5i
Debug: 631 1308 batch.c:199 log_dmi_decoded(): read: dmstatus=0x4003a2 {version=0_13 impebreak=1 hasresethaltreq=1 authenticated=true anyhalted=1 allhalted=1}
Debug: 632 1308 riscv.c:2663 riscv_halt_go_all_harts(): [hazard3.cpu] Hart is already halted.
Debug: 633 1308 target.c:1789 target_call_event_callbacks(): target event 0 (gdb-halt) for core hazard3.cpu
Debug: 634 1308 target.c:1789 target_call_event_callbacks(): target event 1 (halted) for core hazard3.cpu
User : 635 1308 riscv.c:3566 riscv_arch_state(): hazard3.cpu halted due to undefined.
Debug: 636 1308 riscv.c:4020 riscv_openocd_poll(): [hazard3.cpu] Polling all harts.
Debug: 637 1308 riscv.c:3843 riscv_poll_hart(): [hazard3.cpu] polling, target->state=2
Debug: 638 1308 batch.c:291 riscv_batch_run_from(): [hazard3.cpu] Running batch of scans [0, 2)
Debug: 639 1323 batch.c:255 log_batch(): 41b r 00000000 @11 -> + 004003a2 @00; 5i
Debug: 640 1323 batch.c:255 log_batch(): 41b - 00000000 @00 -> + 004003a2 @00; 5i
Debug: 641 1323 batch.c:199 log_dmi_decoded(): read: dmstatus=0x4003a2 {version=0_13 impebreak=1 hasresethaltreq=1 authenticated=true anyhalted=1 allhalted=1}
Debug: 642 1323 riscv.c:4079 riscv_openocd_poll(): [hazard3.cpu] should_remain_halted=0, should_resume=0
Info : 643 1323 server.c:298 add_service(): Listening on port 6666 for tcl connections
Info : 644 1323 server.c:298 add_service(): Listening on port 4444 for telnet connections
Debug: 645 1323 command.c:86 script_debug(): command - init
Debug: 646 1393 riscv.c:4020 riscv_openocd_poll(): [hazard3.cpu] Polling all harts.
Debug: 647 1393 riscv.c:3843 riscv_poll_hart(): [hazard3.cpu] polling, target->state=2
Debug: 648 1393 batch.c:291 riscv_batch_run_from(): [hazard3.cpu] Running batch of scans [0, 2)
Debug: 649 1406 batch.c:255 log_batch(): 41b r 00000000 @11 -> + 004003a2 @00; 5i
Debug: 650 1406 batch.c:255 log_batch(): 41b - 00000000 @00 -> + 004003a2 @00; 5i
Debug: 651 1406 batch.c:199 log_dmi_decoded(): read: dmstatus=0x4003a2 {version=0_13 impebreak=1 hasresethaltreq=1 authenticated=true anyhalted=1 allhalted=1}
Debug: 652 1406 riscv_reg.c:781 riscv_reg_flush_all(): [hazard3.cpu] Flushing register cache
Debug: 653 1406 riscv_reg.c:792 riscv_reg_flush_all(): [hazard3.cpu] fp is dirty; write back 0x4003b6c3
Debug: 654 1406 riscv_reg.c:856 riscv_set_or_write_register(): [hazard3.cpu] Writing to target: fp <- 0x4003b6c3 (cacheable=true, valid=true, dirty=true)
Debug: 655 1406 riscv-013.c:5134 riscv013_set_register(): [hazard3.cpu] writing 0x4003b6c3 to register fp
Debug: 656 1406 riscv-013.c:1606 register_write_direct(): [hazard3.cpu] Writing 0x4003b6c3 to fp
Debug: 657 1406 riscv-013.c:979 register_write_abstract(): [hazard3.cpu] access register=0x231008 {regno=0x1008 write=register transfer=enabled postexec=disabled aarpostincrement=disabled aarsize=32bit}
Debug: 658 1406 batch.c:291 riscv_batch_run_from(): [hazard3.cpu] Running batch of scans [0, 4)
Debug: 659 1428 batch.c:255 log_batch(): 41b w 4003b6c3 @04 -> + 004003a2 @00; 5i
Debug: 660 1428 batch.c:199 log_dmi_decoded(): write: 
Debug: 661 1428 batch.c:255 log_batch(): 41b w 00231008 @17 -> + 4003b6c3 @00; 5i
Debug: 662 1428 batch.c:199 log_dmi_decoded(): write: command=0x231008 {control=0x231008}
Debug: 663 1428 batch.c:255 log_batch(): 41b r 00000000 @16 -> + 00000000 @00; 5i
Debug: 664 1428 batch.c:255 log_batch(): 41b - 00000000 @00 -> + 02000001 @00; 5i
Debug: 665 1428 batch.c:199 log_dmi_decoded(): read: abstractcs=0x2000001 {datacount=1 progbufsize=2}
Debug: 666 1428 riscv-013.c:683 abstract_cmd_batch_check_and_clear_cmderr(): [hazard3.cpu] abstractcs=0x2000001 {datacount=1 relaxedpriv=full_checks busy=ready progbufsize=2 cmderr=none}
Debug: 667 1428 riscv-013.c:1625 register_write_direct(): [hazard3.cpu] fp <- 0x4003b6c3
Debug: 668 1428 riscv_reg.c:872 riscv_set_or_write_register(): [hazard3.cpu] Wrote 0x4003b6c3 to fp (cacheable=true, valid=true, dirty=false)
Debug: 669 1428 riscv_reg.c:798 riscv_reg_flush_all(): [hazard3.cpu] Flush of register cache completed
Debug: 670 1428 riscv.c:4079 riscv_openocd_poll(): [hazard3.cpu] should_remain_halted=0, should_resume=0
Debug: 671 1428 target.c:3008 handle_target(): [hazard3.cpu] target_poll() -> 0, next attempt in 100ms
Debug: 672 1494 riscv.c:4020 riscv_openocd_poll(): [hazard3.cpu] Polling all harts.
Debug: 673 1494 riscv.c:3843 riscv_poll_hart(): [hazard3.cpu] polling, target->state=2
Debug: 674 1494 batch.c:291 riscv_batch_run_from(): [hazard3.cpu] Running batch of scans [0, 2)
Debug: 675 1506 batch.c:255 log_batch(): 41b r 00000000 @11 -> + 02000001 @00; 5i
Debug: 676 1506 batch.c:255 log_batch(): 41b - 00000000 @00 -> + 004003a2 @00; 5i
Debug: 677 1506 batch.c:199 log_dmi_decoded(): read: dmstatus=0x4003a2 {version=0_13 impebreak=1 hasresethaltreq=1 authenticated=true anyhalted=1 allhalted=1}
Debug: 678 1506 riscv_reg.c:781 riscv_reg_flush_all(): [hazard3.cpu] Flushing register cache
Debug: 679 1506 riscv_reg.c:798 riscv_reg_flush_all(): [hazard3.cpu] Flush of register cache completed
Debug: 680 1506 riscv.c:4079 riscv_openocd_poll(): [hazard3.cpu] should_remain_halted=0, should_resume=0
Debug: 681 1506 target.c:3008 handle_target(): [hazard3.cpu] target_poll() -> 0, next attempt in 100ms
Debug: 682 1595 riscv.c:4020 riscv_openocd_poll(): [hazard3.cpu] Polling all harts.
Debug: 683 1595 riscv.c:3843 riscv_poll_hart(): [hazard3.cpu] polling, target->state=2
Debug: 684 1595 batch.c:291 riscv_batch_run_from(): [hazard3.cpu] Running batch of scans [0, 2)
Debug: 685 1608 batch.c:255 log_batch(): 41b r 00000000 @11 -> + 004003a2 @00; 5i
Debug: 686 1608 batch.c:255 log_batch(): 41b - 00000000 @00 -> + 004003a2 @00; 5i
Debug: 687 1608 batch.c:199 log_dmi_decoded(): read: dmstatus=0x4003a2 {version=0_13 impebreak=1 hasresethaltreq=1 authenticated=true anyhalted=1 allhalted=1}
Debug: 688 1608 riscv_reg.c:781 riscv_reg_flush_all(): [hazard3.cpu] Flushing register cache
Debug: 689 1608 riscv_reg.c:798 riscv_reg_flush_all(): [hazard3.cpu] Flush of register cache completed
Debug: 690 1608 riscv.c:4079 riscv_openocd_poll(): [hazard3.cpu] should_remain_halted=0, should_resume=0
Debug: 691 1608 target.c:3008 handle_target(): [hazard3.cpu] target_poll() -> 0, next attempt in 100ms
Debug: 692 1695 riscv.c:4020 riscv_openocd_poll(): [hazard3.cpu] Polling all harts.
Debug: 693 1695 riscv.c:3843 riscv_poll_hart(): [hazard3.cpu] polling, target->state=2
Debug: 694 1695 batch.c:291 riscv_batch_run_from(): [hazard3.cpu] Running batch of scans [0, 2)
Debug: 695 1708 batch.c:255 log_batch(): 41b r 00000000 @11 -> + 004003a2 @00; 5i
Debug: 696 1708 batch.c:255 log_batch(): 41b - 00000000 @00 -> + 004003a2 @00; 5i
Debug: 697 1708 batch.c:199 log_dmi_decoded(): read: dmstatus=0x4003a2 {version=0_13 impebreak=1 hasresethaltreq=1 authenticated=true anyhalted=1 allhalted=1}
Debug: 698 1708 riscv_reg.c:781 riscv_reg_flush_all(): [hazard3.cpu] Flushing register cache
Debug: 699 1708 riscv_reg.c:798 riscv_reg_flush_all(): [hazard3.cpu] Flush of register cache completed
Debug: 700 1708 riscv.c:4079 riscv_openocd_poll(): [hazard3.cpu] should_remain_halted=0, should_resume=0
Debug: 701 1708 target.c:3008 handle_target(): [hazard3.cpu] target_poll() -> 0, next attempt in 100ms
Debug: 702 1795 riscv.c:4020 riscv_openocd_poll(): [hazard3.cpu] Polling all harts.
Debug: 703 1795 riscv.c:3843 riscv_poll_hart(): [hazard3.cpu] polling, target->state=2
Debug: 704 1795 batch.c:291 riscv_batch_run_from(): [hazard3.cpu] Running batch of scans [0, 2)
Debug: 705 1808 batch.c:255 log_batch(): 41b r 00000000 @11 -> + 004003a2 @00; 5i
Debug: 706 1808 batch.c:255 log_batch(): 41b - 00000000 @00 -> + 004003a2 @00; 5i
Debug: 707 1808 batch.c:199 log_dmi_decoded(): read: dmstatus=0x4003a2 {version=0_13 impebreak=1 hasresethaltreq=1 authenticated=true anyhalted=1 allhalted=1}
Debug: 708 1808 riscv_reg.c:781 riscv_reg_flush_all(): [hazard3.cpu] Flushing register cache
Debug: 709 1808 riscv_reg.c:798 riscv_reg_flush_all(): [hazard3.cpu] Flush of register cache completed
Debug: 710 1808 riscv.c:4079 riscv_openocd_poll(): [hazard3.cpu] should_remain_halted=0, should_resume=0
Debug: 711 1808 target.c:3008 handle_target(): [hazard3.cpu] target_poll() -> 0, next attempt in 100ms
Debug: 712 1895 riscv.c:4020 riscv_openocd_poll(): [hazard3.cpu] Polling all harts.
Debug: 713 1895 riscv.c:3843 riscv_poll_hart(): [hazard3.cpu] polling, target->state=2
Debug: 714 1895 batch.c:291 riscv_batch_run_from(): [hazard3.cpu] Running batch of scans [0, 2)
Debug: 715 1908 batch.c:255 log_batch(): 41b r 00000000 @11 -> + 004003a2 @00; 5i
Debug: 716 1908 batch.c:255 log_batch(): 41b - 00000000 @00 -> + 004003a2 @00; 5i
Debug: 717 1908 batch.c:199 log_dmi_decoded(): read: dmstatus=0x4003a2 {version=0_13 impebreak=1 hasresethaltreq=1 authenticated=true anyhalted=1 allhalted=1}
Debug: 718 1908 riscv_reg.c:781 riscv_reg_flush_all(): [hazard3.cpu] Flushing register cache
Debug: 719 1908 riscv_reg.c:798 riscv_reg_flush_all(): [hazard3.cpu] Flush of register cache completed
Debug: 720 1908 riscv.c:4079 riscv_openocd_poll(): [hazard3.cpu] should_remain_halted=0, should_resume=0
Debug: 721 1908 target.c:3008 handle_target(): [hazard3.cpu] target_poll() -> 0, next attempt in 100ms
Debug: 722 1995 riscv.c:4020 riscv_openocd_poll(): [hazard3.cpu] Polling all harts.
Debug: 723 1995 riscv.c:3843 riscv_poll_hart(): [hazard3.cpu] polling, target->state=2
Debug: 724 1995 batch.c:291 riscv_batch_run_from(): [hazard3.cpu] Running batch of scans [0, 2)
Debug: 725 2008 batch.c:255 log_batch(): 41b r 00000000 @11 -> + 004003a2 @00; 5i
Debug: 726 2008 batch.c:255 log_batch(): 41b - 00000000 @00 -> + 004003a2 @00; 5i
Debug: 727 2008 batch.c:199 log_dmi_decoded(): read: dmstatus=0x4003a2 {version=0_13 impebreak=1 hasresethaltreq=1 authenticated=true anyhalted=1 allhalted=1}
Debug: 728 2008 riscv_reg.c:781 riscv_reg_flush_all(): [hazard3.cpu] Flushing register cache
Debug: 729 2008 riscv_reg.c:798 riscv_reg_flush_all(): [hazard3.cpu] Flush of register cache completed
Debug: 730 2008 riscv.c:4079 riscv_openocd_poll(): [hazard3.cpu] should_remain_halted=0, should_resume=0
Debug: 731 2008 target.c:3008 handle_target(): [hazard3.cpu] target_poll() -> 0, next attempt in 100ms
Debug: 732 2095 riscv.c:4020 riscv_openocd_poll(): [hazard3.cpu] Polling all harts.
Debug: 733 2095 riscv.c:3843 riscv_poll_hart(): [hazard3.cpu] polling, target->state=2
Debug: 734 2095 batch.c:291 riscv_batch_run_from(): [hazard3.cpu] Running batch of scans [0, 2)
Debug: 735 2108 batch.c:255 log_batch(): 41b r 00000000 @11 -> + 004003a2 @00; 5i
Debug: 736 2108 batch.c:255 log_batch(): 41b - 00000000 @00 -> + 004003a2 @00; 5i
Debug: 737 2108 batch.c:199 log_dmi_decoded(): read: dmstatus=0x4003a2 {version=0_13 impebreak=1 hasresethaltreq=1 authenticated=true anyhalted=1 allhalted=1}
Debug: 738 2108 riscv_reg.c:781 riscv_reg_flush_all(): [hazard3.cpu] Flushing register cache
Debug: 739 2108 riscv_reg.c:798 riscv_reg_flush_all(): [hazard3.cpu] Flush of register cache completed
Debug: 740 2108 riscv.c:4079 riscv_openocd_poll(): [hazard3.cpu] should_remain_halted=0, should_resume=0
Debug: 741 2108 target.c:3008 handle_target(): [hazard3.cpu] target_poll() -> 0, next attempt in 100ms
Debug: 742 2195 riscv.c:4020 riscv_openocd_poll(): [hazard3.cpu] Polling all harts.
Debug: 743 2195 riscv.c:3843 riscv_poll_hart(): [hazard3.cpu] polling, target->state=2
Debug: 744 2195 batch.c:291 riscv_batch_run_from(): [hazard3.cpu] Running batch of scans [0, 2)
Debug: 745 2208 batch.c:255 log_batch(): 41b r 00000000 @11 -> + 004003a2 @00; 5i
Debug: 746 2208 batch.c:255 log_batch(): 41b - 00000000 @00 -> + 004003a2 @00; 5i
Debug: 747 2208 batch.c:199 log_dmi_decoded(): read: dmstatus=0x4003a2 {version=0_13 impebreak=1 hasresethaltreq=1 authenticated=true anyhalted=1 allhalted=1}
Debug: 748 2208 riscv_reg.c:781 riscv_reg_flush_all(): [hazard3.cpu] Flushing register cache
Debug: 749 2208 riscv_reg.c:798 riscv_reg_flush_all(): [hazard3.cpu] Flush of register cache completed
Debug: 750 2208 riscv.c:4079 riscv_openocd_poll(): [hazard3.cpu] should_remain_halted=0, should_resume=0
Debug: 751 2208 target.c:3008 handle_target(): [hazard3.cpu] target_poll() -> 0, next attempt in 100ms
Debug: 752 2295 riscv.c:4020 riscv_openocd_poll(): [hazard3.cpu] Polling all harts.
Debug: 753 2295 riscv.c:3843 riscv_poll_hart(): [hazard3.cpu] polling, target->state=2
Debug: 754 2295 batch.c:291 riscv_batch_run_from(): [hazard3.cpu] Running batch of scans [0, 2)
Debug: 755 2307 batch.c:255 log_batch(): 41b r 00000000 @11 -> + 004003a2 @00; 5i
Debug: 756 2307 batch.c:255 log_batch(): 41b - 00000000 @00 -> + 004003a2 @00; 5i
Debug: 757 2307 batch.c:199 log_dmi_decoded(): read: dmstatus=0x4003a2 {version=0_13 impebreak=1 hasresethaltreq=1 authenticated=true anyhalted=1 allhalted=1}
Debug: 758 2307 riscv_reg.c:781 riscv_reg_flush_all(): [hazard3.cpu] Flushing register cache
Debug: 759 2307 riscv_reg.c:798 riscv_reg_flush_all(): [hazard3.cpu] Flush of register cache completed
